! Sonnet Data File
! From: em Version : 18.56
! From Project: hairpin_InBand_Nf201
! Data is De-embedded 
! Data File Written: 03/21/2023 12:17:24
!< HDATE 10/24/2012 11:01:19
!< MDATE 10/24/2012 11:01:19
# GHZ S MA R 50.00000
3.950000000000000 0.9799344768133 149.02361267485 0.0020067008243 -121.1649726854 0.0020067008243 -121.1649726854 0.9800115030817 164.18763806547
3.951000000000000 0.9795388499168 148.52198975185 0.0021250985814 -121.7504788604 0.0021250985814 -121.7504788604 0.9796042760501 163.69132426933
3.952000000000000 0.9791287823231 148.01048872038 0.0022518608099 -122.3480975076 0.0022518608098 -122.3480975077 0.9791816145135 163.18482474353
3.953000000000000 0.9787035251167 147.48874684535 0.0023876812044 -122.9583285241 0.0023876812044 -122.9583285242 0.9787426847700 162.66775083537
3.954000000000000 0.9782622738166 146.95638216505 0.0025333198204 -123.5816250511 0.0025333198204 -123.5816250511 0.9782865891494 162.13969247687
3.955000000000000 0.9778041695487 146.41299261418 0.0026896104822 -124.2185136327 0.0026896104822 -124.2185136327 0.9778123679037 161.60021707166
3.956000000000000 0.9773282918538 145.85815398417 0.0028574690084 -124.8695303221 0.0028574690084 -124.8695303221 0.9773189895589 161.04886722504
3.957000000000000 0.9768336525468 145.29141880421 0.0030379022472 -125.5352423422 0.0030379022472 -125.5352423423 0.9768053437191 160.48515938921
3.958000000000000 0.9763191902669 144.71231476310 0.0032320185751 -126.2162689400 0.0032320185751 -126.2162689400 0.9762702354391 159.90858195356
3.959000000000000 0.9757837621077 144.12034220468 0.0034410393748 -126.9132236053 0.0034410393748 -126.9132236053 0.9757123729702 159.31859248798
3.960000000000000 0.9752261382555 143.51497281598 0.0036663126530 -127.6268055997 0.0036663126531 -127.6268055996 0.9751303653624 158.71461600190
3.961000000000000 0.9746449914693 142.89564670521 0.0039093275323 -128.3577280812 0.0039093275323 -128.3577280812 0.9745227056334 158.09604168072
3.962000000000000 0.9740388868344 142.26177054407 0.0041717314830 -129.1067451976 0.0041717314830 -129.1067451976 0.9738877613618 157.46222054767
3.963000000000000 0.9734062722640 141.61271413566 0.0044553497005 -129.8746764179 0.0044553497005 -129.8746764179 0.9732237614286 156.81246155560
3.964000000000000 0.9727454638067 140.94780844207 0.0047622065814 -130.6623843999 0.0047622065814 -130.6623843999 0.9725287801113 156.14602905470
3.965000000000000 0.9720546353336 140.26634116225 0.0050945513186 -131.4707937840 0.0050945513186 -131.4707937840 0.9718007228004 155.46213773200
3.966000000000000 0.9713317973351 139.56755392534 0.0054548859844 -132.3008885125 0.0054548859844 -132.3008885125 0.9710373025327 154.75994910325
3.967000000000000 0.9705747818346 138.85063770034 0.0058459983092 -133.1537113531 0.0058459983092 -133.1537113531 0.9702360186763 154.03856614666
3.968000000000000 0.9697812229152 138.11472842383 0.0062709994772 -134.0303941404 0.0062709994772 -134.0303941404 0.9693941385789 153.29702798177
3.969000000000000 0.9689485285640 137.35890250767 0.0067333664868 -134.9321457749 0.0067333664868 -134.9321457749 0.9685086588711 152.53430442222
3.970000000000000 0.9680738568878 136.58217013863 0.0072369924060 -135.8602542130 0.0072369924060 -135.8602542130 0.9675762759950 151.74928808768
3.971000000000000 0.9671540811969 135.78347017854 0.0077862428086 -136.8161171456 0.0077862428086 -136.8161171456 0.9665933517607 150.94078797562
3.972000000000000 0.9661857575819 134.96166265847 0.0083860221430 -137.8012292657 0.0083860221430 -137.8012292657 0.9655558645156 150.10752049510
3.973000000000000 0.9651650801250 134.11552042997 0.0090418506728 -138.8172108381 0.0090418506728 -138.8172108381 0.9644593604991 149.24809938696
3.974000000000000 0.9640878269576 133.24372120711 0.0097599522424 -139.8658067428 0.0097599522424 -139.8658067428 0.9632988913511 148.36102581468
3.975000000000000 0.9629493121970 132.34483680442 0.0105473589717 -140.9489149985 0.0105473589717 -140.9489149985 0.9620689467498 147.44467533707
3.976000000000000 0.9617443073032 131.41732177224 0.0114120307634 -142.0685756808 0.0114120307634 -142.0685756808 0.9607633698180 146.49728401458
3.977000000000000 0.9604669658811 130.45950103779 0.0123629974215 -143.2270334202 0.0123629974215 -143.2270334202 0.9593752650748 145.51693295413
3.978000000000000 0.9591107272795 129.46955456521 0.0134105235781 -144.4267167263 0.0134105235781 -144.4267167263 0.9578968735059 144.50152967358
3.979000000000000 0.9576682018198 128.44550083566 0.0145663031827 -145.6702746572 0.0145663031827 -145.6702746572 0.9563194487771 143.44878738422
3.980000000000000 0.9561310334621 127.38517725780 0.0158436894135 -146.9606204190 0.0158436894135 -146.9606204190 0.9546330846927 142.35620085783
3.981000000000000 0.9544897387536 126.28621817556 0.0172579647840 -148.3009303541 0.0172579647840 -148.3009303541 0.9528265216267 141.22101891548
3.982000000000000 0.9527335016033 125.14602901255 0.0188266634839 -149.6947228777 0.0188266634839 -149.6947228777 0.9508869101425 140.04021212772
3.983000000000000 0.9508499346102 123.96175697142 0.0205699508102 -151.1458586231 0.0205699508102 -151.1458586231 0.9487995238493 138.81043596426
3.984000000000000 0.9488247824941 122.73025590353 0.0225110797794 -152.6586214362 0.0225110797794 -152.6586214362 0.9465474028982 137.52798676785
3.985000000000000 0.9466415550374 121.44804713364 0.0246769308129 -154.2377607096 0.0246769308129 -154.2377607096 0.9441109341494 136.18875189358
3.986000000000000 0.9442810761910 120.11127153527 0.0270986632524 -155.8885695583 0.0270986632524 -155.8885695583 0.9414673139869 134.78814911317
3.987000000000000 0.9417209208189 118.71563550406 0.0298124906196 -157.6169424169 0.0298124906196 -157.6169424168 0.9385898831135 133.32105748331
3.988000000000000 0.9389347068962 117.25634613590 0.0328606186085 -159.4295017796 0.0328606186084 -159.4295017796 0.9354473223730 131.78173412574
3.989000000000000 0.9358912061832 115.72803567024 0.0362923679293 -161.3336881243 0.0362923679293 -161.3336881243 0.9320025994273 130.16371664648
3.990000000000000 0.9325532167882 114.12467302440 0.0401655291840 -163.3379060579 0.0401655291839 -163.3379060579 0.9282116839991 128.45970760358
3.991000000000000 0.9288761287495 112.43945855012 0.0445479942888 -165.4516727945 0.0445479942888 -165.4516727945 0.9240218932696 126.66143644789
3.992000000000000 0.9248060664449 110.66470128005 0.0495197180691 -167.6858201383 0.0495197180690 -167.6858201383 0.9193697702758 124.75949594577
3.993000000000000 0.9202775216802 108.79167541946 0.0551750691519 -170.0527107906 0.0551750691520 -170.0527107906 0.9141783899164 122.74314838455
3.994000000000000 0.9152102695246 106.81045412648 0.0616256320666 -172.5665139410 0.0616256320666 -172.5665139410 0.9083538862033 120.60009635148
3.995000000000000 0.9095053782549 104.70971844826 0.0690035203550 -175.2435338019 0.0690035203550 -175.2435338019 0.9017809548201 118.31621255917
3.996000000000000 0.9030399884025 102.47654379406 0.0774652229289 -178.1025811655 0.0774652229289 -178.1025811655 0.8943170286870 115.87522586557
3.997000000000000 0.8956606034532 100.09617179524 0.0871959659933 178.83457735032 0.0871959659932 178.83457735033 0.8857848103462 113.25836519085
3.997999999999990 0.8871742974409 97.551778222644 0.0984144577958 175.54270501103 0.0984144577958 175.54270501103 0.8759625969820 110.44396176925
3.998999999999990 0.8773375423323 94.824274771658 0.1113776574928 171.99253249799 0.1113776574929 171.99253249798 0.8645720116968 107.40703629598
4.000000000000000 0.8658421300234 91.892208986438 0.1263848227751 168.15015903758 0.1263848227753 168.15015903756 0.8512626989123 104.11891723137
4.001000000000000 0.8522980077054 88.731867153957 0.1437794751498 163.97651694860 0.1437794751498 163.97651694860 0.8355937861705 100.54697016516
4.002000000000001 0.8362136039856 85.317796562197 0.1639467791535 159.42696628287 0.1639467791537 159.42696628287 0.8170128565798 96.654622662915
4.003000000000000 0.8169758095415 81.624083583463 0.1873022312105 154.45133476925 0.1873022312109 154.45133476922 0.7948347876708 92.401974223088
4.004000000000000 0.7938349320322 77.626939056030 0.2142654179748 148.99474672572 0.2142654179745 148.99474672572 0.7682262742223 87.747477643569
4.005000000000000 0.7659057394208 73.309478117578 0.2452099447318 142.99988132161 0.2452099447317 142.99988132159 0.7362077057959 82.651503535595
4.006000000000000 0.7322043434510 68.669905362831 0.2803798312348 136.41148981405 0.2803798312353 136.41148981403 0.6976930066775 77.082903608493
4.007000000000001 0.6917512914209 63.734674213291 0.3197659569010 129.18414817693 0.3197659569013 129.18414817691 0.6515981655342 71.030090914593
4.008000000000000 0.6437767661634 58.578108405011 0.3629507889421 121.29379645753 0.3629507889428 121.29379645746 0.5970533100681 64.518252267636
4.009000000000000 0.5880489157231 53.349102544772 0.4089599823759 112.75228163677 0.4089599823760 112.75228163675 0.5337351289045 57.634108552176
4.010000000000001 0.5252917757791 48.303357230765 0.4562004515229 103.62158627629 0.4562004515229 103.62158627602 0.4622770773309 50.559699245843
4.011000000000000 0.4575622742411 43.836170899443 0.5025851150735 94.021265581228 0.5025851150727 94.021265581363 0.3846169529597 43.620402759273
4.012000000000000 0.3883770668180 40.505808743263 0.5458917478676 84.121940438576 0.5458917478659 84.121940438487 0.3040783793039 37.371183378090
4.013000000000000 0.3224181415130 39.024200271123 0.5842649069772 74.122018964395 0.5842649069790 74.122018964575 0.2250875378700 32.813053589752
4.014000000000000 0.2648100109471 40.147887601156 0.6166385520594 64.213948655390 0.6166385520599 64.213948655401 0.1528212696987 32.074665251741
4.015000000000010 0.2200338239713 44.321459675568 0.6428749408257 54.553018063679 0.6428749408244 54.553018063635 0.0940273956430 40.707871198291
4.016000000000011 0.1904351860416 51.023949481534 0.6635929304228 45.240104826265 0.6635929304234 45.240104826294 0.0620595573565 70.085344145450
4.017000000000010 0.1747724829403 58.494790774790 0.6798299341980 36.321109240210 0.6798299341987 36.321109240223 0.0687310210775 104.56915966984
4.018000000000010 0.1685180313265 64.768494529288 0.6927152195758 27.797983821738 0.6927152195784 27.797983821772 0.0910705328325 118.26728799770
4.019000000000010 0.1663464867142 68.941183420493 0.7032528954586 19.643916859705 0.7032528954582 19.643916859761 0.1108475689617 121.21245202401
4.020000000000010 0.1642935119319 71.162258096439 0.7122242389527 11.817242300363 0.7122242389542 11.817242300380 0.1238603397142 120.22862402766
4.021000000000011 0.1601861065220 72.001042356998 0.7201740310856 4.2718084396070 0.7201740310856 4.2718084395871 0.1297642097660 117.74661439775
4.022000000000010 0.1531791614820 72.061147475684 0.7274412237336 -3.036443389805 0.7274412237328 -3.036443389796 0.1291974106988 114.77395834433
4.023000000000010 0.1432431109294 71.888512545500 0.7342056986430 -10.14589128369 0.7342056986410 -10.14589128373 0.1230830407075 111.85651901097
4.024000000000011 0.1308383632650 72.006710990283 0.7405360134483 -17.08773096278 0.7405360134492 -17.08773096277 0.1124332683172 109.42439972001
4.025000000000010 0.1167600804407 72.992575775239 0.7464312862931 -23.88581449254 0.7464312862931 -23.88581449240 0.0983107526166 107.99095944720
4.026000000000010 0.1021072214375 75.558695513990 0.7518553071435 -30.55728887958 0.7518553071433 -30.55728887969 0.0818804619567 108.39252039546
4.027000000000010 0.0883425585647 80.581702784599 0.7567625206193 -37.11367140135 0.7567625206193 -37.11367140136 0.0646049321588 112.26399826812
4.028000000000010 0.0773616778852 88.859542204067 0.7611162988185 -43.56212642982 0.7611162988204 -43.56212642973 0.0488277525914 122.97651139554
4.029000000000011 0.0712612392161 100.21834485753 0.7649002914772 -49.90676725428 0.7649002914777 -49.90676725427 0.0390803533039 145.16802870883
4.030000000000010 0.0713464544930 112.49349044808 0.7681237301059 -56.14987819414 0.7681237301051 -56.14987819415 0.0409315667005 173.23347409841
4.031000000000010 0.0770335833585 122.65486550060 0.7708216573065 -62.29295513383 0.7708216573065 -62.29295513380 0.0528494738286 -168.2260900574
4.032000000000011 0.0863126194661 129.24872738676 0.7730515483754 -68.33753940671 0.7730515483758 -68.33753940670 0.0689770577262 -159.6603752595
4.033000000000010 0.0971050944369 132.54689157421 0.7748873781553 -74.28580062952 0.7748873781551 -74.28580062951 0.0859402366349 -156.3602432719
4.034000000000010 0.1078982334210 133.36495464913 0.7764125681886 -80.14089235536 0.7764125681883 -80.14089235535 0.1022642969418 -155.6484028543
4.035000000000010 0.1177187683891 132.42035651714 0.7777128169130 -85.90709405592 0.7777128169126 -85.90709405590 0.1172436404773 -156.2545815235
4.036000000000010 0.1259628877118 130.21210915134 0.7788695428659 -91.58978595938 0.7788695428664 -91.58978595937 0.1305099854370 -157.5394150300
4.037000000000011 0.1322655518006 127.05984439798 0.7799545048170 -97.19529029664 0.7799545048156 -97.19529029664 0.1418768973628 -159.1490828136
4.038000000000010 0.1364212061683 123.15761727919 0.7810258285746 -102.7306377809 0.7810258285745 -102.7306377809 0.1512765199247 -160.8678162734
4.039000000000010 0.1383383584887 118.61222148868 0.7821253778314 -108.2032682822 0.7821253778310 -108.2032682822 0.1587301551380 -162.5508320638
4.040000000000011 0.1380146151826 113.46570240390 0.7832775556736 -113.6207264795 0.7832775556737 -113.6207264795 0.1643332420370 -164.0916202243
4.041000000000010 0.1355249577402 107.70588673788 0.7844892473391 -118.9903559381 0.7844892473394 -118.9903559380 0.1682474316028 -165.4053654000
4.042000000000010 0.1310202460439 101.26771209821 0.7857507793892 -124.3190201328 0.7857507793894 -124.3190201328 0.1706963844818 -166.4209093877
4.043000000000010 0.1247358838721 94.026600383787 0.7870377444985 -129.6128507242 0.7870377444982 -129.6128507242 0.1719630149689 -167.0781691752
4.044000000000010 0.1170129232176 85.784669617714 0.7883135523648 -134.8770513782 0.7883135523650 -134.8770513782 0.1723859576879 -167.3298110306
4.045000000000020 0.1083361484077 76.253245036971 0.7895324744587 -140.1157421141 0.7895324744585 -140.1157421141 0.1723525784760 -167.1466474732
4.046000000000021 0.0993940244648 65.046204196112 0.7906431909334 -145.3318704143 0.7906431909327 -145.3318704143 0.1722852858235 -166.5259999946
4.047000000000020 0.0911544530780 51.730136995378 0.7915924895768 -150.5271763613 0.7915924895768 -150.5271763613 0.1726183758924 -165.5010920041
4.048000000000020 0.0849055095478 36.029898715685 0.7923290987615 -155.7022227136 0.7923290987606 -155.7022227136 0.1737642612524 -164.1479137807
4.049000000000020 0.0821137006760 18.259189849308 0.7928073642050 -160.8564806150 0.7928073642053 -160.8564806150 0.1760721459644 -162.5848638338
4.050000000000020 0.0839412373245 -0.334873497627 0.7929905445552 -165.9884766303 0.7929905445549 -165.9884766302 0.1797870765654 -160.9617912956
4.051000000000021 0.0906571592074 -18.02059638258 0.7928535681512 -171.0959848937 0.7928535681527 -171.0959848938 0.1850206251380 -159.4393089784
4.052000000000020 0.1015738967925 -33.60716390277 0.7923850610658 -176.1762523400 0.7923850610658 -176.1762523400 0.1917422199163 -158.1645376663
4.053000000000020 0.1155538523930 -46.83373146506 0.7915884539376 178.77374857195 0.7915884539383 178.77374857190 0.1997931855410 -157.2516217449
4.054000000000021 0.1314903201509 -57.99938281904 0.7904821536975 173.75705621343 0.7904821536977 173.75705621341 0.2089172521883 -156.7725676182
4.055000000000020 0.1484895212579 -67.54440337328 0.7890988566012 168.77647818921 0.7890988566018 168.77647818892 0.2187974956454 -156.7586625647
4.056000000000020 0.1658704640157 -75.85885087040 0.7874839758296 163.83435503788 0.7874839758296 163.83435503797 0.2290906537022 -157.2087402688
4.057000000000020 0.1831160410841 -83.23977049109 0.7856934302565 158.93236951043 0.7856934302565 158.93236951048 0.2394538676354 -158.0998048658
4.058000000000020 0.1998277535965 -89.90155072107 0.7837909763432 154.07139382297 0.7837909763412 154.07139382290 0.2495626974209 -159.3967769830
4.059000000000021 0.2156937261432 -95.99659119368 0.7818452883257 149.25138342856 0.7818452883260 149.25138342859 0.2591215113304 -161.0599532267
4.060000000000020 0.2304675519688 -101.6333410253 0.7799269575237 144.47132071816 0.7799269575241 144.47132071816 0.2678681963208 -163.0500080264
4.061000000000020 0.2439542584445 -106.8895214366 0.7781056393110 139.72920202687 0.7781056393107 139.72920202686 0.2755750740481 -165.3309825113
4.062000000000021 0.2560005978550 -111.8212284462 0.7764474119337 135.02206715710 0.7764474119325 135.02206715708 0.2820475067743 -167.8718463538
4.063000000000020 0.2664880900659 -116.4690392851 0.7750124745511 130.34606020635 0.7750124745507 130.34606020636 0.2871212373459 -170.6471475509
4.064000000000020 0.2753277887238 -120.8620385451 0.7738531566219 125.69652984882 0.7738531566210 125.69652984882 0.2906592291551 -173.6371405289
4.065000000000020 0.2824564377999 -125.0204459248 0.7730123111636 121.06813723763 0.7730123111634 121.06813723761 0.2925485365795 -176.8276726180
4.066000000000020 0.2878337209729 -128.9572422998 0.7725220180066 116.45499533013 0.7725220180064 116.45499533014 0.2926975042412 179.79001253282
4.067000000000021 0.2914406032049 -132.6791189912 0.7724025728799 111.85081494621 0.7724025728792 111.85081494620 0.2910335884107 176.21940645372
4.068000000000020 0.2932787955643 -136.1869099329 0.7726617733683 107.24906105029 0.7726617733682 107.24906105029 0.2875019501634 172.45871957380
4.069000000000020 0.2933713530525 -139.4756453773 0.7732943881719 102.64312345554 0.7732943881719 102.64312345554 0.2820649803286 168.50061014916
4.070000000000021 0.2917645479624 -142.5343045639 0.7742819456159 98.026486120414 0.7742819456162 98.026486120415 0.2747029004177 164.33154126080
4.071000000000020 0.2885310526976 -145.3453460656 0.7755926987824 93.392906148096 0.7755926987820 93.392906148120 0.2654155368075 159.93059034679
4.072000000000020 0.2837745214286 -147.8841027393 0.7771819630938 88.736594281101 0.7771819630935 88.736594281113 0.2542255035768 155.26742805137
4.073000000000020 0.2776355557216 -150.1181740830 0.7789927807271 84.052394376454 0.7789927807268 84.052394376458 0.2411830478694 150.29901022057
4.074000000000020 0.2702989201607 -152.0070500899 0.7809570677628 79.335954558232 0.7809570677616 79.335954558242 0.2263731233366 144.96420095517
4.075000000000030 0.2620016648056 -153.5023651553 0.7829972348976 74.583896291155 0.7829972348972 74.583896291164 0.2099256743892 139.17499027972
4.076000000000031 0.2530413092915 -154.5494503021 0.7850284292176 69.793948920224 0.7850284292172 69.793948920228 0.1920310754513 132.80193813209
4.077000000000030 0.2437824294774 -155.0911811277 0.7869614157928 64.965067636820 0.7869614157927 64.965067636826 0.1729648789663 125.64976120633
4.078000000000030 0.2346587985500 -155.0754243416 0.7887060161773 60.097498405059 0.7887060161778 60.097498405078 0.1531299350585 117.41631921252
4.079000000000030 0.2261664451061 -154.4673030164 0.7901750833867 55.192800284259 0.7901750833867 55.192800284251 0.1331327318526 107.62634159762
4.080000000000030 0.2188416251675 -153.2663551440 0.7912887702570 50.253803143184 0.7912887702571 50.253803143190 0.1139241245548 95.541949124738
4.081000000000031 0.2132180543387 -151.5256821611 0.7919789256393 45.284490011480 0.7919789256397 45.284490011482 0.0970377113324 80.130924011280
4.082000000000030 0.2097627478933 -149.3657273196 0.7921931680117 40.289816029515 0.7921931680116 40.289816029498 0.0848393301131 60.468704928728
4.083000000000030 0.2088005363308 -146.9723366939 0.7918984059574 35.275456999337 0.7918984059573 35.275456999332 0.0801761231032 37.224988505921
4.084000000000031 0.2104495441025 -144.5725153731 0.7910833750146 30.247504193764 0.7910833750145 30.247504193758 0.0845538530657 13.865944562265
