! Sonnet Data File
! From: em Version : 18.56
! From Project: N1000_0o1-100exp_0o05Cell_nd_nadap
! Data is De-embedded 
! Data File Written: 03/07/2023 07:09:06
!< HDATE 03/07/2023 06:37:38
!< MDATE 03/07/2023 06:37:38
# GHZ S MA R 50.00000
0.100000000000000 0.9999999312625 -3.800726799278
0.100693863147603 0.9999999300591 -3.827086357946
0.101392540755882 0.9999999288261 -3.853628557336
0.102096066230605 0.9999999275820 -3.880354660746
0.102804473209331 0.9999999263117 -3.907265938296
0.103517795563018 0.9999999250099 -3.934363670004
0.104236067397640 0.9999999236980 -3.961649143021
0.104959323055823 0.9999999223608 -3.989123653900
0.105687597118481 0.9999999210024 -4.016788509160
0.106420924406473 0.9999999196103 -4.044645022517
0.107159339982267 0.9999999181977 -4.072694518613
0.107902879151618 0.9999999167661 -4.100938328949
0.108651577465254 0.9999999152905 -4.129377795945
0.109405470720574 0.9999999138104 -4.158014271220
0.110164594963366 0.9999999122961 -4.186849113966
0.110928986489522 0.9999999107599 -4.215883693699
0.111698681846782 0.9999999091920 -4.245119389527
0.112473717836475 0.9999999075890 -4.274557589974
0.113254131515281 0.9999999059765 -4.304199692409
0.114039960197003 0.9999999043283 -4.334047104662
0.114831241454351 0.9999999026453 -4.364101243389
0.115628013120738 0.9999999009358 -4.394363533985
0.116430313292088 0.9999998991989 -4.424835414886
0.117238180328660 0.9999998974207 -4.455518330567
0.118051652856881 0.9999998956262 -4.486413737469
0.118870769771191 0.9999998937910 -4.517523101715
0.119695570235905 0.9999998919315 -4.548847898857
0.120526093687084 0.9999998900357 -4.580389615087
0.121362379834424 0.9999998881068 -4.612149746417
0.122204468663149 0.9999998861394 -4.644129799151
0.123052400435926 0.9999998841416 -4.676331289316
0.123906215694792 0.9999998821119 -4.708755744514
0.124765955263087 0.9999998800422 -4.741404701968
0.125631660247412 0.9999998779311 -4.774279708506
0.126503372039591 0.9999998757986 -4.807382323157
0.127381132318648 0.9999998736172 -4.840714115105
0.128264983052806 0.9999998714022 -4.874276662462
0.129154966501489 0.9999998691445 -4.908071556319
0.130051125217341 0.9999998668482 -4.942100397893
0.130953502048267 0.9999998645116 -4.976364799324
0.131862140139475 0.9999998621357 -5.010866382124
0.132777082935543 0.9999998597103 -5.045606781390
0.133698374182495 0.9999998572555 -5.080587641890
0.134626057929891 0.9999998547558 -5.115810619839
0.135560178532937 0.9999998522085 -5.151277381994
0.136500780654602 0.9999998496096 -5.186989607184
0.137447909267754 0.9999998469703 -5.222948986378
0.138401609657314 0.9999998442863 -5.259157220154
0.139361927422415 0.9999998415574 -5.295616021612
0.140328908478588 0.9999998387818 -5.332327115948
0.141302599059954 0.9999998359535 -5.369292238416
0.142283045721436 0.9999998330750 -5.406513138210
0.143270295340984 0.9999998301496 -5.443991574791
0.144264395121816 0.9999998271662 -5.481729319829
0.145265392594679 0.9999998241364 -5.519728157097
0.146273335620114 0.9999998210561 -5.557989881895
0.147288272390751 0.9999998179225 -5.596516303060
0.148310251433611 0.9999998147287 -5.635309240799
0.149339321612426 0.9999998114789 -5.674370526835
0.150375532129974 0.9999998081688 -5.713702005729
0.151418932530436 0.9999998048142 -5.753305536002
0.152469572701758 0.9999998013876 -5.793182985972
0.153527502878043 0.9999997979082 -5.833336238976
0.154592773641948 0.9999997943686 -5.873767190107
0.155665435927107 0.9999997907600 -5.914477746470
0.156745541020560 0.9999997870930 -5.955469828554
0.157833140565212 0.9999997833559 -5.996745370854
0.158928286562299 0.9999997795673 -6.038306319745
0.160031031373871 0.9999997757026 -6.080154634473
0.161141427725303 0.9999997717731 -6.122292287826
0.162259528707810 0.9999997677680 -6.164721265546
0.163385387780987 0.9999997637043 -6.207443568494
0.164519058775367 0.9999997595611 -6.250461207804
0.165660595894992 0.9999997553469 -6.293776210418
0.166810053720007 0.9999997510570 -6.337390616423
0.167967487209266 0.9999997466965 -6.381306478990
0.169132951702966 0.9999997422597 -6.425525865810
0.170306502925285 0.9999997377429 -6.470050857690
0.171488196987055 0.9999997331476 -6.514883549742
0.172678090388437 0.9999997284754 -6.560026051200
0.173876240021626 0.9999997237141 -6.605480484945
0.175082703173573 0.9999997188819 -6.651248988412
0.176297537528722 0.9999997139538 -6.697333713684
0.177520801171765 0.9999997089425 -6.743736826207
0.178752552590425 0.9999997038474 -6.790460506182
0.179992850678249 0.9999996986571 -6.837506948859
0.181241754737425 0.9999996933749 -6.884878363779
0.182499324481616 0.9999996880096 -6.932576975150
0.183765620038818 0.9999996825490 -6.980605021934
0.185040701954231 0.9999996769824 -7.028964758226
0.186324631193157 0.9999996713331 -7.077658452814
0.187617469143913 0.9999996655793 -7.126688389957
0.188919277620768 0.9999996597171 -7.176056867892
0.190230118866896 0.9999996537642 -7.225766201964
0.191550055557354 0.9999996476971 -7.275818721547
0.192879150802079 0.9999996415350 -7.326216771798
0.194217468148904 0.9999996352598 -7.376962713532
0.195565071586596 0.9999996288715 -7.428058922462
0.196922025547919 0.9999996223755 -7.479507790901
0.198288394912709 0.9999996157672 -7.531311726589
0.199664245010981 0.9999996090424 -7.583473153668
0.201049641626051 0.9999996021956 -7.635994510774
0.202444650997682 0.9999995952353 -7.688878254689
0.203849339825248 0.9999995881517 -7.742126856849
0.205263775270927 0.9999995809465 -7.795742805048
0.206688024962910 0.9999995736105 -7.849728604527
0.208122156998635 0.9999995661482 -7.904086775703
0.209566239948045 0.9999995585579 -7.958819856509
0.211020342856861 0.9999995508361 -8.013930400813
0.212484535249890 0.9999995429753 -8.069420979543
0.213958887134344 0.9999995349790 -8.125294180398
0.215443469003190 0.9999995268471 -8.181552608645
0.216938351838520 0.9999995185663 -8.238198885776
0.218443607114945 0.9999995101502 -8.295235650467
0.219959306803009 0.9999995015810 -8.352665558366
0.221485523372638 0.9999994928654 -8.410491283534
0.223022329796596 0.9999994839941 -8.468715516572
0.224569799553979 0.9999994749682 -8.527340965940
0.226128006633730 0.9999994657831 -8.586370357168
0.227697025538170 0.9999994564467 -8.645806434384
0.229276931286567 0.9999994469432 -8.705651959074
0.230867799418719 0.9999994372756 -8.765909709983
0.232469705998567 0.9999994274329 -8.826582485037
0.234082727617831 0.9999994174203 -8.887673099622
0.235706941399675 0.9999994072388 -8.949184387324
0.237342425002389 0.9999993968728 -9.011119200474
0.238989256623107 0.9999993863337 -9.073480408989
0.240647515001545 0.9999993756095 -9.136270901797
0.242317279423762 0.9999993646923 -9.199493586769
0.243998629725957 0.9999993535894 -9.263151389840
0.245691646298281 0.9999993422935 -9.327247256145
0.247396410088684 0.9999993308013 -9.391784149788
0.249113002606781 0.9999993191075 -9.456765052752
0.250841505927756 0.9999993072118 -9.522192968096
0.252582002696281 0.9999992951066 -9.588070916402
0.254334576130467 0.9999992827924 -9.654401938320
0.256099310025848 0.9999992702647 -9.721189093595
0.257876288759383 0.9999992575159 -9.788435461753
0.259665597293490 0.9999992445470 -9.856144141976
0.261467321180112 0.9999992313488 -9.924318252200
0.263281546564805 0.9999992179283 -9.992960931739
0.265108360190856 0.9999992042692 -10.06207533849
0.266947849403435 0.9999991903748 -10.13166465084
0.268800102153763 0.9999991762388 -10.20173206731
0.270665207003327 0.9999991618563 -10.27228080627
0.272543253128106 0.9999991472222 -10.34331410719
0.274434330322839 0.9999991323315 -10.41483522907
0.276338529005320 0.9999991171858 -10.48684745150
0.278255940220715 0.9999991017817 -10.55935407552
0.280186655645922 0.9999990860962 -10.63235842165
0.282130767593950 0.9999990701497 -10.70586383179
0.284088369018333 0.9999990539261 -10.77987366890
0.286059553517577 0.9999990374115 -10.85439131668
0.288044415339633 0.9999990206170 -10.92942018022
0.290043049386402 0.9999990035316 -11.00496368490
0.292055551218278 0.9999989861467 -11.08102527888
0.294082017058710 0.9999989684617 -11.15760842961
0.296122543798807 0.9999989504638 -11.23471662814
0.298177229001971 0.9999989321610 -11.31235338586
0.300246170908558 0.9999989135378 -11.39052223591
0.302329468440581 0.9999988945914 -11.46922673375
0.304427221206434 0.9999988753138 -11.54847045590
0.306539529505656 0.9999988557040 -11.62825700184
0.308666494333731 0.9999988357528 -11.70858999213
0.310808217386910 0.9999988154571 -11.78947306952
0.312964801067079 0.9999987948090 -11.87090989956
0.315136348486652 0.9999987738008 -11.95290416997
0.317322963473502 0.9999987524282 -12.03545959059
0.319524750575925 0.9999987306878 -12.11857989379
0.321741815067641 0.9999987085718 -12.20226883465
0.323974262952824 0.9999986860646 -12.28653019115
0.326222200971171 0.9999986631729 -12.37136776367
0.328485736603008 0.9999986398876 -12.45678537590
0.330764978074428 0.9999986161919 -12.54278687331
0.333060034362463 0.9999985920890 -12.62937612619
0.335371015200297 0.9999985675736 -12.71655702642
0.337698031082513 0.9999985426256 -12.80433348997
0.340041193270375 0.9999985172496 -12.89270945540
0.342400613797147 0.9999984914334 -12.98168888551
0.344776405473451 0.9999984651676 -13.07127576574
0.347168681892661 0.9999984384518 -13.16147410551
0.349577557436332 0.9999984112702 -13.25228793776
0.352003147279673 0.9999983836239 -13.34372131883
0.354445567397048 0.9999983554921 -13.43577832929
0.356904934567528 0.9999983268782 -13.52846307330
0.359381366380467 0.9999982977680 -13.62177967908
0.361874981241133 0.9999982681532 -13.71573229857
0.364385898376359 0.9999982380298 -13.81032510804
0.366914237840254 0.9999982073856 -13.90556230776
0.369460120519935 0.9999981762085 -14.00144812226
0.372023668141312 0.9999981444966 -14.09798680067
0.374605003274904 0.9999981122347 -14.19518261580
0.377204249341705 0.9999980794170 -14.29303986538
0.379821530619079 0.9999980460295 -14.39156287128
0.382456972246705 0.9999980120684 -14.49075598046
0.385110700232562 0.9999979775206 -14.59062356382
0.387782841458951 0.9999979423780 -14.69117001727
0.390473523688562 0.9999979066270 -14.79239976170
0.393182875570582 0.9999978702612 -14.89431724198
0.395911026646852 0.9999978332687 -14.99692692868
0.398658107358050 0.9999977956340 -15.10023331672
0.401424249049938 0.9999977573539 -15.20424092610
0.404209583979637 0.9999977184150 -15.30895430192
0.407014245321950 0.9999976788019 -15.41437801422
0.409838367175732 0.9999976385091 -15.52051665806
0.412682084570301 0.9999975975234 -15.62737485360
0.415545533471894 0.9999975558296 -15.73495724648
0.418428850790164 0.9999975134202 -15.84326850720
0.421332174384735 0.9999974702775 -15.95231333119
0.424255643071784 0.9999974263973 -16.06209644025
0.427199396630684 0.9999973817576 -16.17262258022
0.430163575810686 0.9999973363546 -16.28389652287
0.433148322337647 0.9999972901667 -16.39592306546
0.436153778920807 0.9999972431872 -16.50870703020
0.439180089259615 0.9999971954002 -16.62225326547
0.442227398050597 0.9999971467904 -16.73656664366
0.445295850994272 0.9999970973497 -16.85165206411
0.448385594802126 0.9999970470572 -16.96751445070
0.451496777203617 0.9999969959019 -17.08415875291
0.454629546953247 0.9999969438669 -17.20158994610
0.457784053837669 0.9999968909427 -17.31981303033
0.460960448682851 0.9999968371080 -17.43883303178
0.464158883361285 0.9999967823513 -17.55865500195
0.467379510799254 0.9999967266554 -17.67928401737
0.470622484984136 0.9999966700050 -17.80072518053
0.473887960971773 0.9999966123862 -17.92298361917
0.477176094893882 0.9999965537789 -18.04606448632
0.480487043965521 0.9999964941672 -18.16997296041
0.483820966492603 0.9999964335373 -18.29471424531
0.487178021879471 0.9999963718687 -18.42029357064
0.490558370636513 0.9999963091453 -18.54671619024
0.493962174387840 0.9999962453502 -18.67398738418
0.497389595879015 0.9999961804629 -18.80211245745
0.500840798984829 0.9999961144656 -18.93109674009
0.504315948717144 0.9999960473430 -19.06094558755
0.507815211232776 0.9999959790768 -19.19166438003
0.511338753841441 0.9999959096391 -19.32325852317
0.514886745013758 0.9999958390183 -19.45573344669
0.518459354389300 0.9999957671944 -19.58909460630
0.522056752784706 0.9999956941462 -19.72334748193
0.525679112201851 0.9999956198501 -19.85849757857
0.529326605836065 0.9999955442912 -19.99455042536
0.532999408084418 0.9999954674410 -20.13151157627
0.536697694554057 0.9999953892850 -20.26938660984
0.540421642070601 0.9999953097974 -20.40818112894
0.544171428686599 0.9999952289553 -20.54790076070
0.547947233690038 0.9999951467408 -20.68855115659
0.551749237612922 0.9999950631278 -20.83013799165
0.555577622239898 0.9999949780926 -20.97266696548
0.559432570616948 0.9999948916144 -21.11614380105
0.563314267060146 0.9999948036666 -21.26057424517
0.567222897164465 0.9999947142235 -21.40596406815
0.571158647812654 0.9999946232659 -21.55231906376
0.575121707184172 0.9999945307654 -21.69964504920
0.579112264764187 0.9999944366946 -21.84794786440
0.583130511352633 0.9999943410291 -21.99723337230
0.587176639073336 0.9999942437434 -22.14750745889
0.591250841383199 0.9999941448125 -22.29877603252
0.595353313081448 0.9999940442044 -22.45104502412
0.599484250318952 0.9999939418966 -22.60432038647
0.603643850607598 0.9999938378561 -22.75860809485
0.607832312829735 0.9999937320598 -22.91391414623
0.612049837247682 0.9999936244746 -23.07024455895
0.616296625513306 0.9999935150731 -23.22760537300
0.620572880677662 0.9999934038260 -23.38600264955
0.624878807200702 0.9999932907016 -23.54544247030
0.629214610961047 0.9999931756693 -23.70593093830
0.633580499265838 0.9999930586981 -23.86747417668
0.637976680860641 0.9999929397567 -24.03007832865
0.642403365939432 0.9999928188136 -24.19374955759
0.646860766154646 0.9999926958346 -24.35849404661
0.651349094627294 0.9999925707877 -24.52431799778
0.655868565957157 0.9999924436396 -24.69122763280
0.660419396233044 0.9999923143550 -24.85922919159
0.665001803043126 0.9999921828977 -25.02832893281
0.669616005485336 0.9999920492351 -25.19853313353
0.674262224177848 0.9999919133323 -25.36984808832
0.678940681269625 0.9999917751489 -25.54228010945
0.683651600451038 0.9999916346539 -25.71583552609
0.688395206964564 0.9999914918046 -25.89052068443
0.693171727615555 0.9999913465668 -26.06634194722
0.697981390783081 0.9999911988977 -26.24330569277
0.702824426430850 0.9999910487616 -26.42141831580
0.707701066118204 0.9999908961162 -26.60068622567
0.712611543011190 0.9999907409234 -26.78111584700
0.717556091893708 0.9999905831426 -26.96271361873
0.722534949178737 0.9999904227294 -27.14548599398
0.727548352919639 0.9999902596461 -27.32943943948
0.732596542821539 0.9999900938474 -27.51458043502
0.737679760252789 0.9999899252885 -27.70091547304
0.742798248256508 0.9999897539273 -27.88845105852
0.747952251562199 0.9999895797178 -28.07719370803
0.753142016597454 0.9999894026151 -28.26714994937
0.758367791499736 0.9999892225748 -28.45832632126
0.763629826128241 0.9999890395492 -28.65072937271
0.768928372075848 0.9999888534899 -28.84436566222
0.774263682681144 0.9999886643508 -29.03924175800
0.779636013040541 0.9999884720810 -29.23536423645
0.785045620020468 0.9999882766310 -29.43273968224
0.790492762269660 0.9999880779535 -29.63137468784
0.795977700231516 0.9999878759950 -29.83127585209
0.801500696156559 0.9999876707045 -30.03244978101
0.807062014114969 0.9999874620321 -30.23490308566
0.812661920009213 0.9999872499212 -30.43864238264
0.818300681586758 0.9999870343172 -30.64367429275
0.823978568452871 0.9999868151702 -30.85000544110
0.829695852083510 0.9999865924205 -31.05764245567
0.835452805838306 0.9999863660139 -31.26659196704
0.841249704973631 0.9999861358932 -31.47686060779
0.847086826655760 0.9999859020007 -31.68845501141
0.852964449974122 0.9999856642762 -31.90138181209
0.858882855954645 0.9999854226638 -32.11564764351
0.864842327573192 0.9999851770996 -32.33125913868
0.870843149769093 0.9999849275251 -32.54822292847
0.876885609458764 0.9999846738767 -32.76654564163
0.882969995549430 0.9999844160933 -32.98623390330
0.889096598952937 0.9999841541101 -33.20729433462
0.895265712599661 0.9999838878623 -33.42973355206
0.901477631452513 0.9999836172848 -33.65355816603
0.907732652521044 0.9999833423135 -33.87877478088
0.914031074875645 0.9999830628788 -34.10538999304
0.920373199661844 0.9999827789128 -34.33341039115
0.926759330114710 0.9999824903466 -34.56284255470
0.933189771573346 0.9999821971110 -34.79369305311
0.939664831495492 0.9999818991348 -35.02596844483
0.946184819472223 0.9999815963479 -35.25967527682
0.952750047242752 0.9999812886740 -35.49482008305
0.959360828709338 0.9999809760414 -35.73140938408
0.966017479952288 0.9999806583756 -35.96944968571
0.972720319245078 0.9999803356020 -36.20894747819
0.979469667069564 0.9999800076422 -36.44990923539
0.986265846131307 0.9999796744184 -36.69234141351
0.993109181375004 0.9999793358536 -36.93625045028
1.000000000000020 0.9999789918666 -37.18164276392
1.006938631476050 0.9999786423790 -37.42852475198
1.013925407558840 0.9999782873064 -37.67690279043
1.020960662306070 0.9999779265677 -37.92678323264
1.028044732093340 0.9999775600783 -38.17817240809
1.035177955630200 0.9999771877536 -38.43107662162
1.042360673976430 0.9999768095083 -38.68550215202
1.049593230558250 0.9999764252543 -38.94145525097
1.056875971184830 0.9999760349042 -39.19894214241
1.064209244064750 0.9999756383696 -39.45796902052
1.071593399822700 0.9999752355592 -39.71854204926
1.079028791516210 0.9999748263803 -39.98066736118
1.086515774652570 0.9999744107440 -40.24435105590
1.094054707205770 0.9999739885532 -40.50959919927
1.101645949633690 0.9999735597143 -40.77641782192
1.109289864895250 0.9999731241321 -41.04481291843
1.116986818467850 0.9999726817086 -41.31479044551
1.124737178364780 0.9999722323453 -41.58635632165
1.132541315152840 0.9999717759449 -41.85951642501
1.140399601970060 0.9999713124058 -42.13427659280
1.148312414543540 0.9999708416238 -42.41064261995
1.156280131207410 0.9999703634990 -42.68862025733
1.164303132920910 0.9999698779266 -42.96821521143
1.172381803286630 0.9999693847991 -43.24943314216
1.180516528568840 0.9999688840131 -43.53227966223
1.188707697711940 0.9999683754587 -43.81676033554
1.196955702359080 0.9999678590270 -44.10288067603
1.205260936870870 0.9999673346083 -44.39064614625
1.213623798344270 0.9999668020912 -44.68006215647
1.222044686631520 0.9999662613622 -44.97113406275
1.230524004359300 0.9999657123084 -45.26386716619
1.239062156947950 0.9999651548128 -45.55826671139
1.247659552630900 0.9999645887576 -45.85433788502
1.256316602474150 0.9999640140294 -46.15208581492
1.265033720395940 0.9999634305052 -46.45151556831
1.273811323186510 0.9999628380671 -46.75263215092
1.282649830528100 0.9999622365896 -47.05544050527
1.291549665014920 0.9999616259527 -47.35994550978
1.300511252173440 0.9999610060312 -47.66615197712
1.309535020482700 0.9999603766998 -47.97406465315
1.318621401394790 0.9999597378294 -48.28368821534
1.327770829355470 0.9999590892934 -48.59502727199
1.336983741824980 0.9999584309611 -48.90808636027
1.346260579298950 0.9999577627014 -49.22286994565
1.355601785329410 0.9999570843823 -49.53938241997
1.365007806546050 0.9999563958692 -49.85762810075
1.374479092677580 0.9999556970278 -50.17761122943
1.384016096573170 0.9999549877198 -50.49933597066
1.393619274224180 0.9999542678078 -50.82280641050
1.403289084785910 0.9999535371530 -51.14802655573
1.413025990599570 0.9999527956135 -51.47500033223
1.422830457214390 0.9999520430479 -51.80373158419
1.432702953409870 0.9999512793119 -52.13422407268
1.442643951218200 0.9999505042606 -52.46648147443
1.452653925946820 0.9999497177474 -52.80050738097
1.462733356201170 0.9999489196236 -53.13630529733
1.472882723907540 0.9999481097402 -53.47387864106
1.483102514336150 0.9999472879471 -53.81323074104
1.493393216124300 0.9999464540908 -54.15436483666
1.503755321299780 0.9999456080170 -54.49728407650
1.514189325304400 0.9999447495720 -54.84199151759
1.524695727017620 0.9999438785976 -55.18849012444
