! Sonnet Data File
! From: em Version : 18.56
! From Project: N100_0o01-10exp_nd_nadap
! Data is De-embedded 
! Data File Written: 02/17/2023 14:33:46
!< HDATE 02/17/2023 13:46:58
!< MDATE 02/17/2023 13:46:58
# GHZ S MA R 50.00000
0.010000000000000 0.9999999998544 -0.301801509911
0.010722672220103 0.9999999998262 -0.323611832703
0.011497569953977 0.9999999997927 -0.346998318989
0.012328467394421 0.9999999997529 -0.372074871870
0.013219411484660 0.9999999997056 -0.398963625473
0.014174741629268 0.9999999996495 -0.427795539687
0.015199110829529 0.9999999995828 -0.458711037845
0.016297508346206 0.9999999995035 -0.491860690472
0.017475284000077 0.9999999994092 -0.527405948404
0.018738174228604 0.9999999992971 -0.565519928837
0.020092330025651 0.9999999991636 -0.606388258142
0.021544346900319 0.9999999990047 -0.650209975506
0.023101297000832 0.9999999988154 -0.697198501799
0.024770763559917 0.9999999985901 -0.747582678358
0.026560877829467 0.9999999983217 -0.801607880714
0.028480358684358 0.9999999980021 -0.859537212642
0.030538555088334 0.9999999976214 -0.921652786321
0.032745491628777 0.9999999971681 -0.988257094761
0.035111917342151 0.9999999966284 -1.059674483124
0.037649358067925 0.9999999959857 -1.136252726012
0.040370172585966 0.9999999952205 -1.218364718294
0.043287612810831 0.9999999943095 -1.306410287581
0.046415888336128 0.9999999932250 -1.400818137002
0.049770235643321 0.9999999919338 -1.502047927550
0.053366992312063 0.9999999903966 -1.610592509885
0.057223676593502 0.9999999885665 -1.726980316155
0.061359072734132 0.9999999863878 -1.851777923109
0.065793322465757 0.9999999837939 -1.985592798511
0.070548023107187 0.9999999807057 -2.129076243664
0.075646332755463 0.9999999770292 -2.282926545650
0.081113083078969 0.9999999726521 -2.447892353776
0.086974900261779 0.9999999674412 -2.624776295580
0.093260334688322 0.9999999612374 -2.814438848688
0.100000000000000 0.9999999538518 -3.017802485729
0.107226722201033 0.9999999450593 -3.235856110483
0.114975699539774 0.9999999345920 -3.469659804382
0.123284673944207 0.9999999221310 -3.720349903408
0.132194114846603 0.9999999072968 -3.989144426365
0.141747416292681 0.9999998896377 -4.277348876298
0.151991108295294 0.9999998686161 -4.586362437628
0.162975083462065 0.9999998435924 -4.917684592141
0.174752840000769 0.9999998138052 -5.272922177442
0.187381742286039 0.9999997783489 -5.653796911617
0.200923300256505 0.9999997361458 -6.062153407731
0.215443469003189 0.9999996859140 -6.499967701178
0.231012970008317 0.9999996261286 -6.969356311787
0.247707635599172 0.9999995549760 -7.472585860731
0.265608778294670 0.9999994702998 -8.012083259593
0.284803586843581 0.9999993695359 -8.590446485115
0.305385550883343 0.9999992496368 -9.210455948004
0.327454916287774 0.9999991069807 -9.875086457293
0.351119173421515 0.9999989372647 -10.58751977293
0.376493580679249 0.9999987353784 -11.35115772786
0.403701725859657 0.9999984952546 -12.16963588664
0.432876128108308 0.9999982096928 -13.04683768970
0.464158883361280 0.9999978701520 -13.98690901052
0.497702356433214 0.9999974665064 -14.99427302606
0.533669923120634 0.9999969867591 -16.07364526867
0.572236765935025 0.9999964167061 -17.23004868918
0.613590727341321 0.9999957395444 -18.46882851560
0.657933224657572 0.9999949354145 -19.79566663991
0.705480231071868 0.9999939808703 -21.21659520603
0.756463327554633 0.9999928482641 -22.73800900649
0.811130830789692 0.9999915050392 -24.36667622571
0.869749002617788 0.9999899129186 -26.10974699607
0.932603346883225 0.9999880269798 -27.97475916635
1.000000000000010 0.9999857946079 -29.96964062757
1.072267222010330 0.9999831543185 -32.10270751300
1.149756995397740 0.9999800344462 -34.38265760481
1.232846739442070 0.9999763516983 -36.81855836662
1.321941148466040 0.9999720095777 -39.41982921408
1.417474162926810 0.9999668966835 -42.19621798425
1.519911082952940 0.9999608849084 -45.15777213033
1.629750834620660 0.9999538275522 -48.31480603285
1.747528400007700 0.9999455573798 -51.67786708081
1.873817422860400 0.9999358846471 -55.25770495863
2.009233002565060 0.9999245951112 -59.06525102043
2.154434690031900 0.9999114480126 -63.11161791172
2.310129700083180 0.9998961739750 -67.40813390536
2.477076355991730 0.9998784726831 -71.96643198751
2.656087782946710 0.9998580100829 -76.79862085253
2.848035868435820 0.9998344146664 -81.91757404161
3.053855508833440 0.9998072721625 -87.33738508539
3.274549162877750 0.9997761176306 -93.07405164204
3.511191734215160 0.9997404235470 -99.14647184660
3.764935806792500 0.9996995819808 -105.5778640495
4.037017258596590 0.9996528784005 -112.3977611595
4.328761281083090 0.9995994540995 -119.6447898355
4.641588833612820 0.9995382538926 -127.3705333258
4.977023564332151 0.9994679561815 -135.6449106666
5.336699231206350 0.9993868852292 -144.5637016885
5.722367659350260 0.9992929144140 -154.2591283818
6.135907273413221 0.9991833942078 -164.9147534750
6.579332246575740 0.9990552037431 -176.7862647254
7.054802310718701 0.9989051861181 169.77046215501
7.564633275546350 0.9987315993308 154.26446519528
8.111308307896941 0.9985379542564 136.03357896947
8.697490026177910 0.9983416156294 114.21100829690
9.326033468832280 0.9981903536788 87.487577172517
10.00000000000000 0.9983448362479 40.074119810478
