! Sonnet Data File
! From: em Version : 18.56
! From Project: N3000_0o1-100exp_nd_nadap
! Data is De-embedded 
! Data File Written: 03/09/2023 16:29:52
!< HDATE 03/04/2023 10:23:07
!< MDATE 03/04/2023 10:23:07
# GHZ S MA R 50.00000
0.100000000000000 0.9999999258204 -4.018824637090
0.100230600763241 0.9999999253979 -4.028086865238
0.100461733293603 0.9999999249668 -4.037370415514
0.100693398817343 0.9999999245081 -4.046675337523
0.100925598563550 0.9999999240778 -4.056001677779
0.101158333764143 0.9999999236283 -4.065349492060
0.101391605653885 0.9999999231874 -4.074718821993
0.101625415470386 0.9999999227351 -4.084109721397
0.101859764454108 0.9999999222749 -4.093522238885
0.102094653848375 0.9999999218262 -4.102956423553
0.102330084899378 0.9999999213562 -4.112412324981
0.102566058856181 0.9999999209068 -4.121889992583
0.102802576970730 0.9999999204460 -4.131389477882
0.103039640497856 0.9999999199809 -4.140910832725
0.103277250695285 0.9999999195017 -4.150454100170
0.103515408823643 0.9999999190360 -4.160019336446
0.103754116146463 0.9999999185689 -4.169606590622
0.103993373930191 0.9999999180819 -4.179215913877
0.104233183444194 0.9999999176112 -4.188847355435
0.104473545960767 0.9999999171264 -4.198500965978
0.104714462755138 0.9999999166436 -4.208176797000
0.104955935105475 0.9999999161687 -4.217874899986
0.105197964292896 0.9999999156733 -4.227595325935
0.105440551601469 0.9999999151714 -4.237338124536
0.105683698318228 0.9999999146653 -4.247103348404
0.105927405733172 0.9999999141756 -4.256891048521
0.106171675139274 0.9999999136716 -4.266701276192
0.106416507832491 0.9999999131641 -4.276534083206
0.106661905111768 0.9999999126524 -4.286389522483
0.106907868279043 0.9999999121428 -4.296267643690
0.107154398639260 0.9999999116325 -4.306168500227
0.107401497500369 0.9999999111272 -4.316092144516
0.107649166173337 0.9999999105949 -4.326038629135
0.107897405972156 0.9999999100534 -4.336008005358
0.108146218213845 0.9999999095510 -4.346000324454
0.108395604218463 0.9999999090003 -4.356015642567
0.108645565309111 0.9999999084851 -4.366054007542
0.108896102811941 0.9999999079564 -4.376115478277
0.109147218056166 0.9999999074085 -4.386200103259
0.109398912374060 0.9999999068621 -4.396307936336
0.109651187100972 0.9999999063172 -4.406439032326
0.109904043575330 0.9999999057779 -4.416593442467
0.110157483138648 0.9999999052266 -4.426771221569
0.110411507135533 0.9999999046703 -4.436972423134
0.110666116913694 0.9999999041097 -4.447197098386
0.110921313823946 0.9999999035535 -4.457445305209
0.111177099220222 0.9999999029816 -4.467717094004
0.111433474459573 0.9999999024133 -4.478012521018
0.111690440902183 0.9999999018585 -4.488331640381
0.111947999911371 0.9999999012796 -4.498674505894
0.112206152853600 0.9999999006886 -4.509041172163
0.112464901098484 0.9999999001168 -4.519431691027
0.112724246018796 0.9999998995287 -4.529846120173
0.112984188990473 0.9999998989349 -4.540284515332
0.113244731392627 0.9999998983447 -4.550746929464
0.113505874607549 0.9999998977595 -4.561233417639
0.113767620020718 0.9999998971558 -4.571744033296
0.114029969020807 0.9999998965564 -4.582278836534
0.114292922999693 0.9999998959492 -4.592837878425
0.114556483352461 0.9999998953399 -4.603421216291
0.114820651477414 0.9999998947256 -4.614028905909
0.115085428776080 0.9999998941107 -4.624661001991
0.115350816653217 0.9999998934872 -4.635317561276
0.115616816516824 0.9999998928716 -4.645998640336
0.115883429778147 0.9999998922432 -4.656704292810
0.116150657851686 0.9999998916162 -4.667434578673
0.116418502155202 0.9999998909857 -4.678189551633
0.116686964109726 0.9999998903375 -4.688969269459
0.116956045139566 0.9999998897035 -4.699773788776
0.117225746672315 0.9999998890588 -4.710603164740
0.117496070138856 0.9999998884064 -4.721457455751
0.117767016973375 0.9999998877582 -4.732336719067
0.118038588613362 0.9999998871051 -4.743241012266
0.118310786499624 0.9999998864421 -4.754170390560
0.118583612076289 0.9999998857698 -4.765124913547
0.118857066790816 0.9999998850969 -4.776104637160
0.119131152094002 0.9999998844375 -4.787109620903
0.119405869439989 0.9999998837582 -4.798139920454
0.119681220286272 0.9999998830817 -4.809195596441
0.119957206093709 0.9999998823883 -4.820276704287
0.120233828326524 0.9999998817133 -4.831383302739
0.120511088452319 0.9999998810107 -4.842515451189
0.120788987942080 0.9999998803201 -4.853673208616
0.121067528270186 0.9999998796104 -4.864856632855
0.121346710914415 0.9999998789036 -4.876065781816
0.121626537355952 0.9999998782110 -4.887300715027
0.121907009079398 0.9999998774949 -4.898561490549
0.122188127572780 0.9999998767782 -4.909848171066
0.122469894327553 0.9999998760566 -4.921160810725
0.122752310838613 0.9999998753299 -4.932499473580
0.123035378604304 0.9999998746055 -4.943864214819
0.123319099126422 0.9999998738690 -4.955255098564
0.123603473910230 0.9999998731297 -4.966672182105
0.123888504464460 0.9999998723868 -4.978115525648
0.124174192301323 0.9999998716319 -4.989585189639
0.124460538936518 0.9999998708912 -5.001081232808
0.124747545889240 0.9999998701484 -5.012603718512
0.125035214682186 0.9999998693730 -5.024152704412
0.125323546841563 0.9999998686217 -5.035728253688
0.125612543897101 0.9999998678535 -5.047330424636
0.125902207382054 0.9999998670604 -5.058959279772
0.126192538833215 0.9999998662943 -5.070614879492
0.126483539790918 0.9999998655098 -5.082297284348
0.126775211799051 0.9999998647345 -5.094006556507
0.127067556405060 0.9999998639408 -5.105742757400
0.127360575159962 0.9999998631443 -5.117505949264
0.127654269618350 0.9999998623421 -5.129296191644
0.127948641338400 0.9999998615321 -5.141113547736
0.128243691881883 0.9999998607343 -5.152958081785
0.128539422814171 0.9999998599123 -5.164829852991
0.128835835704247 0.9999998591056 -5.176728924689
0.129132932124709 0.9999998582773 -5.188655358176
0.129430713651784 0.9999998574426 -5.200609217015
0.129729181865334 0.9999998566119 -5.212590563870
0.130028338348862 0.9999998557737 -5.224599461721
0.130328184689525 0.9999998549217 -5.236635974269
0.130628722478137 0.9999998540811 -5.248700161962
0.130929953309184 0.9999998532313 -5.260792090679
0.131231878780827 0.9999998523752 -5.272911822962
0.131534500494911 0.9999998515155 -5.285059422809
0.131837820056978 0.9999998506293 -5.297234953556
0.132141839076270 0.9999998497615 -5.309438478858
0.132446559165741 0.9999998488842 -5.321670062201
0.132751981942064 0.9999998479998 -5.333929768846
0.133058109025641 0.9999998471154 -5.346217663236
0.133364942040608 0.9999998462162 -5.358533808262
0.133672482614850 0.9999998453283 -5.370878270381
0.133980732380004 0.9999998444284 -5.383251113277
0.134289692971468 0.9999998435101 -5.395652401360
0.134599366028415 0.9999998425985 -5.408082200329
0.134909753193794 0.9999998416764 -5.420540574331
0.135220856114346 0.9999998407465 -5.433027589617
0.135532676440607 0.9999998398173 -5.445543311454
0.135845215826921 0.9999998388832 -5.458087805913
0.136158475931444 0.9999998379392 -5.470661138324
0.136472458416160 0.9999998370037 -5.483263374171
0.136787164946882 0.9999998360455 -5.495894579497
0.137102597193266 0.9999998350853 -5.508554822286
0.137418756828817 0.9999998341152 -5.521244165721
0.137735645530901 0.9999998331514 -5.533962678497
0.138053264980750 0.9999998321838 -5.546710427028
0.138371616863476 0.9999998311932 -5.559487476091
0.138690702868072 0.9999998302087 -5.572293896144
0.139010524687431 0.9999998292245 -5.585129751213
0.139331084018346 0.9999998282244 -5.597995109460
0.139652382561524 0.9999998272084 -5.610890039282
0.139974422021596 0.9999998262027 -5.623814606547
0.140297204107120 0.9999998251903 -5.636768880767
0.140620730530597 0.9999998241681 -5.649752927141
0.140945003008476 0.9999998231447 -5.662766816137
0.141270023261164 0.9999998221108 -5.675810615128
0.141595793013036 0.9999998210744 -5.688884391474
0.141922313992442 0.9999998200215 -5.701988213908
0.142249587931718 0.9999998189745 -5.715122153263
0.142577616567196 0.9999998179191 -5.728286275003
0.142906401639211 0.9999998168538 -5.741480651241
0.143235944892112 0.9999998157811 -5.754705347093
0.143566248074269 0.9999998147010 -5.767960435463
0.143897312938085 0.9999998136185 -5.781245982991
0.144229141240004 0.9999998125363 -5.794562060772
0.144561734740520 0.9999998114428 -5.807908738674
0.144895095204187 0.9999998103395 -5.821286085577
0.145229224399627 0.9999998092280 -5.834694170759
0.145564124099542 0.9999998081187 -5.848133066165
0.145899796080721 0.9999998069999 -5.861602841537
0.146236242124050 0.9999998058705 -5.875103566524
0.146573464014524 0.9999998047301 -5.888635313771
0.146911463541250 0.9999998035922 -5.902198151117
0.147250242497466 0.9999998024516 -5.915792150534
0.147589802680539 0.9999998012968 -5.929417384306
0.147930145891987 0.9999998001286 -5.943073922594
0.148271273937478 0.9999997989735 -5.956761837254
0.148613188626845 0.9999997977813 -5.970481198993
0.148955891774096 0.9999997966178 -5.984232080698
0.149299385197420 0.9999997954250 -5.998014553621
0.149643670719200 0.9999997942265 -6.011828689976
0.149988750166021 0.9999997930221 -6.025674561073
0.150334625368680 0.9999997918219 -6.039552241212
0.150681298162196 0.9999997905977 -6.053461800460
0.151028770385820 0.9999997893792 -6.067403313258
0.151377043883043 0.9999997881477 -6.081376851921
0.151726120501610 0.9999997869069 -6.095382489483
0.152076002093523 0.9999997856684 -6.109420298641
0.152426690515057 0.9999997844185 -6.123490354760
0.152778187626769 0.9999997831493 -6.137592727913
0.153130495293502 0.9999997818921 -6.151727494819
0.153483615384404 0.9999997806077 -6.165894728125
0.153837549772931 0.9999997793339 -6.180094500382
0.154192300336859 0.9999997780514 -6.194326887946
0.154547868958295 0.9999997767518 -6.208591964074
0.154904257523686 0.9999997754449 -6.222889804039
0.155261467923829 0.9999997741381 -6.237220481315
0.155619502053881 0.9999997728164 -6.251584070825
0.155978361813370 0.9999997714906 -6.265980649344
0.156338049106203 0.9999997701594 -6.280410288358
0.156698565840678 0.9999997688092 -6.294873067132
0.157059913929495 0.9999997674640 -6.309369059234
0.157422095289762 0.9999997661068 -6.323898341062
0.157785111843011 0.9999997647401 -6.338460987048
0.158148965515202 0.9999997633579 -6.353057073643
0.158513658236739 0.9999997619931 -6.367686677607
0.158879191942474 0.9999997605964 -6.382349875442
0.159245568571725 0.9999997591973 -6.397046742986
0.159612790068279 0.9999997577912 -6.411777357688
0.159980858380408 0.9999997563799 -6.426541794382
0.160349775460873 0.9999997549530 -6.441340132274
0.160719543266941 0.9999997535365 -6.456172447387
0.161090163760393 0.9999997520874 -6.471038818247
0.161461638907531 0.9999997506356 -6.485939320117
0.161833970679194 0.9999997491809 -6.500874033522
0.162207161050764 0.9999997477229 -6.515843033452
0.162581212002179 0.9999997462492 -6.530846399914
0.162956125517943 0.9999997447732 -6.545884210465
0.163331903587136 0.9999997432809 -6.560956543214
0.163708548203424 0.9999997417707 -6.576063477555
0.164086061365072 0.9999997402754 -6.591205090836
0.164464445074953 0.9999997387528 -6.606381463066
0.164843701340556 0.9999997372336 -6.621592672779
0.165223832174003 0.9999997356963 -6.636838799793
0.165604839592053 0.9999997341573 -6.652119923094
0.165986725616116 0.9999997326078 -6.667436122468
0.166369492272266 0.9999997310392 -6.682787476952
0.166753141591247 0.9999997294728 -6.698174067027
0.167137675608485 0.9999997278871 -6.713595972915
0.167523096364102 0.9999997263176 -6.729053275226
0.167909405902923 0.9999997247157 -6.744546053581
0.168296606274489 0.9999997231000 -6.760074389205
0.168684699533068 0.9999997214841 -6.775638362254
0.169073687737662 0.9999997198639 -6.791238054325
0.169463572952025 0.9999997182212 -6.806873547485
0.169854357244669 0.9999997165775 -6.822544921269
0.170246042688874 0.9999997149325 -6.838252259008
0.170638631362702 0.9999997132642 -6.853995640364
0.171032125349009 0.9999997115917 -6.869775148794
0.171426526735452 0.9999997099097 -6.885590866602
0.171821837614502 0.9999997082115 -6.901442874858
0.172218060083456 0.9999997065148 -6.917331256153
0.172615196244448 0.9999997048019 -6.933256093468
0.173013248204458 0.9999997030831 -6.949217470657
0.173412218075326 0.9999997013491 -6.965215468878
0.173812107973761 0.9999996996029 -6.981250171622
0.174212920021355 0.9999996978503 -6.997321663906
0.174614656344589 0.9999996960897 -7.013430027643
0.175017319074851 0.9999996943256 -7.029575347404
0.175420910348442 0.9999996925358 -7.045757705958
0.175825432306590 0.9999996907485 -7.061977188404
0.176230887095462 0.9999996889426 -7.078233879825
0.176637276866171 0.9999996871286 -7.094527862201
0.177044603774793 0.9999996852900 -7.110859222115
0.177452869982375 0.9999996834609 -7.127228043617
0.177862077654948 0.9999996816196 -7.143634411385
0.178272228963537 0.9999996797674 -7.160078413159
0.178683326084174 0.9999996778945 -7.176560130577
0.179095371197909 0.9999996760170 -7.193079651825
0.179508366490821 0.9999996741191 -7.209637061583
0.179922314154031 0.9999996722212 -7.226232446697
0.180337216383712 0.9999996703136 -7.242865892291
0.180753075381101 0.9999996683930 -7.259537484443
0.181169893352512 0.9999996664548 -7.276247311234
0.181587672509346 0.9999996645068 -7.292995457726
0.182006415068105 0.9999996625546 -7.309782012120
0.182426123250400 0.9999996605824 -7.326607061625
0.182846799282967 0.9999996586000 -7.343470692210
0.183268445397676 0.9999996566166 -7.360372991040
0.183691063831543 0.9999996546076 -7.377314048582
0.184114656826745 0.9999996525926 -7.394293948064
0.184539226630627 0.9999996505696 -7.411312782828
0.184964775495716 0.9999996485340 -7.428370637761
0.185391305679737 0.9999996464825 -7.445467602429
0.185818819445618 0.9999996444164 -7.462603764594
0.186247319061505 0.9999996423460 -7.479779213776
0.186676806800778 0.9999996402620 -7.496994039636
0.187107284942055 0.9999996381644 -7.514248328893
0.187538755769211 0.9999996360661 -7.531542174973
0.187971221571388 0.9999996339333 -7.548875662519
0.188404684643006 0.9999996317949 -7.566248886530
0.188839147283775 0.9999996296542 -7.583661933390
0.189274611798710 0.9999996274959 -7.601114893669
0.189711080498140 0.9999996253229 -7.618607859297
0.190148555697722 0.9999996231369 -7.636140919177
0.190587039718453 0.9999996209365 -7.653714165429
0.191026534886683 0.9999996187342 -7.671327687882
0.191467043534125 0.9999996165093 -7.688981578446
0.191908567997870 0.9999996142701 -7.706675929006
0.192351110620398 0.9999996120306 -7.724410829639
0.192794673749592 0.9999996097574 -7.742186373800
0.193239259738747 0.9999996074920 -7.760002652002
0.193684870946587 0.9999996051971 -7.777859756758
0.194131509737273 0.9999996029009 -7.795757781690
0.194579178480419 0.9999996005846 -7.813696817395
0.195027879551103 0.9999995982625 -7.831676957767
0.195477615329881 0.9999995959211 -7.849698295377
0.195928388202798 0.9999995935608 -7.867760923256
0.196380200561400 0.9999995911906 -7.885864936109
0.196833054802749 0.9999995888094 -7.904010426993
0.197286953329436 0.9999995864116 -7.922197488617
0.197741898549589 0.9999995840062 -7.940426215280
0.198197892876892 0.9999995815794 -7.958696702551
0.198654938730594 0.9999995791425 -7.977009043137
0.199113038535524 0.9999995766834 -7.995363331415
0.199572194722100 0.9999995742171 -8.013759664088
0.200032409726346 0.9999995717446 -8.032198134911
0.200493685989905 0.9999995692443 -8.050678839799
0.200956025960048 0.9999995667350 -8.069201872776
0.201419432089692 0.9999995642103 -8.087767329941
0.201883906837407 0.9999995616727 -8.106375308908
0.202349452667435 0.9999995591182 -8.125025903934
0.202816072049701 0.9999995565452 -8.143719210953
0.203283767459824 0.9999995539710 -8.162455328298
0.203752541379132 0.9999995513644 -8.181234351354
0.204222396294675 0.9999995487541 -8.200056376695
0.204693334699241 0.9999995461220 -8.218921502562
0.205165359091361 0.9999995434763 -8.237829823766
0.205638471975333 0.9999995408209 -8.256781441728
0.206112675861226 0.9999995381456 -8.275776451521
0.206587973264899 0.9999995354559 -8.294814950698
0.207064366708012 0.9999995327502 -8.313897039209
0.207541858718042 0.9999995300277 -8.333022813817
0.208020451828291 0.9999995272891 -8.352192373680
0.208500148577905 0.9999995245305 -8.371405817601
0.208980951511885 0.9999995217714 -8.390663245567
0.209462863181100 0.9999995189787 -8.409964755343
0.209945886142303 0.9999995161744 -8.429310445313
0.210430022958140 0.9999995133555 -8.448700418117
0.210915276197171 0.9999995105276 -8.468134771748
0.211401648433874 0.9999995076766 -8.487613606756
0.211889142248667 0.9999995048038 -8.507137022607
0.212377760227918 0.9999995019264 -8.526705121079
0.212867504963958 0.9999994990202 -8.546318001568
0.213358379055098 0.9999994961064 -8.565975765866
0.213850385105638 0.9999994931712 -8.585678515407
0.214343525725886 0.9999994902236 -8.605426349080
0.214837803532169 0.9999994872500 -8.625219372295
0.215333221146845 0.9999994842625 -8.645057684197
0.215829781198321 0.9999994812562 -8.664941387050
0.216327486321067 0.9999994782367 -8.684870584298
0.216826339155624 0.9999994752018 -8.704845376676
0.217326342348625 0.9999994721460 -8.724865868608
0.217827498552805 0.9999994690763 -8.744932162297
0.218329810427018 0.9999994659803 -8.765044359422
0.218833280636246 0.9999994628746 -8.785202565106
0.219337911851619 0.9999994597431 -8.805406882898
0.219843706750426 0.9999994565987 -8.825657415338
0.220350668016131 0.9999994534334 -8.845954267517
0.220858798338383 0.9999994502553 -8.866297541738
0.221368100413037 0.9999994470594 -8.886687345607
0.221878576942162 0.9999994438326 -8.907123780622
0.222390230634060 0.9999994405871 -8.927606953420
0.222903064203276 0.9999994373397 -8.948136969389
0.223417080370617 0.9999994340681 -8.968713932336
0.223932281863163 0.9999994307732 -8.989337949834
0.224448671414283 0.9999994274595 -9.010009125694
0.224966251763650 0.9999994241255 -9.030727566520
0.225485025657252 0.9999994207671 -9.051493378791
0.226004995847412 0.9999994174044 -9.072306669194
0.226526165092800 0.9999994140173 -9.093167543641
0.227048536158445 0.9999994106011 -9.114076110596
0.227572111815755 0.9999994071697 -9.135032475325
0.228096894842526 0.9999994037240 -9.156036745317
0.228622888022963 0.9999994002473 -9.177089028911
0.229150094147688 0.9999993967634 -9.198189433673
0.229678516013761 0.9999993932484 -9.219338068747
0.230208156424690 0.9999993897155 -9.240535039752
0.230739018190449 0.9999993861644 -9.261780458092
0.231271104127492 0.9999993825959 -9.283074430759
0.231804417058766 0.9999993789986 -9.304417066073
0.232338959813731 0.9999993753905 -9.325808476115
0.232874735228368 0.9999993717557 -9.347248767583
0.233411746145201 0.9999993681032 -9.368738051254
0.233949995413307 0.9999993644223 -9.390276436485
0.234489485888333 0.9999993607284 -9.411864034046
0.235030220432512 0.9999993570106 -9.433500953606
0.235572201914677 0.9999993532646 -9.455187306168
0.236115433210277 0.9999993495015 -9.476923202441
0.236659917201390 0.9999993457199 -9.498708753819
0.237205656776743 0.9999993419145 -9.520544070030
0.237752654831721 0.9999993380816 -9.542429264558
0.238300914268390 0.9999993342297 -9.564364448975
0.238850437995504 0.9999993303602 -9.586349734406
0.239401228928527 0.9999993264656 -9.608385233541
0.239953289989645 0.9999993225456 -9.630471057811
0.240506624107784 0.9999993186112 -9.652607321509
0.241061234218622 0.9999993146443 -9.674794136210
0.241617123264609 0.9999993106545 -9.697031615218
0.242174294194979 0.9999993066460 -9.719319873485
0.242732749965767 0.9999993026169 -9.741659023326
0.243292493539825 0.9999992985598 -9.764049178947
0.243853527886836 0.9999992944752 -9.786490453692
0.244415855983334 0.9999992903760 -9.808982963040
0.244979480812714 0.9999992862502 -9.831526820879
0.245544405365253 0.9999992820989 -9.854122142421
0.246110632638122 0.9999992779284 -9.876769042826
0.246678165635403 0.9999992737268 -9.899467637040
0.247247007368108 0.9999992695017 -9.922218041005
0.247817160854190 0.9999992652584 -9.945020369964
