! Sonnet Data File
! From: sonnet Version : 18.52
! From Emgraph Data: 
! Data File Written: 11/20/2021 12:44:46
!< HDATE 11/20/2021 12:41:12
!< MDATE 11/20/2021 12:41:12
# GHZ Y RI R 1.0
0.100000000000000 0.0197391910939 -1.768911976438
0.124812030075188 0.0197314460050 -1.417494643349
0.149624060150376 0.0197219969054 -1.182670665998
0.174436090225564 0.0197108471312 -1.014686756183
0.199248120300752 0.0196980006142 -0.888572381749
0.224060150375940 0.0196834618781 -0.790417770866
0.248872180451128 0.0196672360346 -0.711860240036
0.273684210526316 0.0196493287785 -0.647569717316
0.298496240601504 0.0196297463822 -0.593988337092
0.323308270676692 0.0196084956900 -0.548650407494
0.348120300751880 0.0195855841119 -0.509793190892
0.372932330827068 0.0195610196163 -0.476123058313
0.397744360902256 0.0195348107233 -0.446669170184
0.422556390977444 0.0195069664964 -0.420688707287
0.447368421052631 0.0194774965342 -0.397603638301
0.472180451127820 0.0194464109619 -0.376957423700
0.496992481203008 0.0194137204222 -0.358384688838
0.521804511278196 0.0193794360654 -0.341589549380
0.546616541353383 0.0193435695395 -0.326329839853
0.571428571428571 0.0193061329799 -0.312405451079
0.596240601503759 0.0192671389987 -0.299649579573
0.621052631578947 0.0192266006734 -0.287922074549
0.645864661654135 0.0191845315354 -0.277104318445
0.670676691729323 0.0191409455586 -0.267095243833
0.695488721804511 0.0190958571468 -0.257808202935
0.720300751879699 0.0190492811219 -0.249168484143
0.745112781954887 0.0190012327108 -0.241111324740
0.769924812030075 0.0189517275328 -0.233580307879
0.794736842105263 0.0189007815865 -0.226526059850
0.819548872180451 0.0188484112364 -0.219905183981
0.844360902255639 0.0187946331996 -0.213679382521
0.869172932330827 0.0187394645319 -0.207814728918
0.893984962406015 0.0186829226141 -0.202281061283
0.918796992481203 0.0186250251384 -0.197051474141
0.943609022556391 0.0185657900938 -0.192101890355
0.968421052631579 0.0185052357526 -0.187410698867
0.993233082706767 0.0184433806557 -0.182958446730
1.018045112781960 0.0183802435985 -0.178727576186
1.042857142857140 0.0183158436171 -0.174702199260
1.067669172932330 0.0182501999732 -0.170867903802
1.092481203007520 0.0181833321405 -0.167211585950
1.117293233082710 0.0181152597902 -0.163721304914
1.142105263157890 0.0180460027768 -0.160386156697
1.166917293233080 0.0179755811239 -0.157196163919
1.191729323308270 0.0179040150100 -0.154142179404
1.216541353383460 0.0178313247551 -0.151215801572
1.241353383458650 0.0177575308059 -0.148409299972
1.266165413533830 0.0176826537227 -0.145715549565
1.290977443609020 0.0176067141657 -0.143127972600
1.315789473684210 0.0175297328810 -0.140640487048
1.340601503759400 0.0174517306878 -0.138247460775
1.365413533834590 0.0173727284653 -0.135943670707
1.390225563909770 0.0172927471391 -0.133724266362
1.415037593984960 0.0172118076691 -0.131584737226
1.439849624060150 0.0171299310365 -0.129520883496
1.464661654135340 0.0170471382316 -0.127528789801
1.489473684210530 0.0169634502417 -0.125604801542
1.514285714285710 0.0168788880392 -0.123745503562
1.539097744360900 0.0167934725700 -0.121947700880
1.563909774436090 0.0167072247419 -0.120208401253
1.588721804511280 0.0166201654139 -0.118524799376
1.613533834586470 0.0165323153849 -0.116894262536
1.638345864661650 0.0164436953833 -0.115314317568
1.663157894736840 0.0163543260569 -0.113782638986
1.687969924812030 0.0162642279624 -0.112297038145
1.712781954887220 0.0161734215564 -0.110855453359
1.737593984962410 0.0160819271852 -0.109455940858
1.762406015037590 0.0159897650763 -0.108096666506
1.787218045112780 0.0158969553291 -0.106775898214
1.812030075187970 0.0158035179067 -0.105491998970
1.836842105263160 0.0157094726275 -0.104243420439
1.861654135338350 0.0156148391574 -0.103028697065
1.886466165413530 0.0155196370021 -0.101846440651
1.911278195488720 0.0154238854999 -0.100695335345
1.936090225563910 0.0153276038146 -0.099574133023
1.960902255639100 0.0152308109289 -0.098481649018
1.985714285714290 0.0151335256380 -0.097416758162
2.010526315789470 0.0150357665435 -0.096378391135
2.035338345864660 0.0149375520477 -0.095365531064
2.060150375939850 0.0148389003479 -0.094377210376
2.084962406015040 0.0147398294317 -0.093412507879
2.109774436090230 0.0146403570715 -0.092470546034
2.134586466165410 0.0145405008207 -0.091550488433
2.159398496240600 0.0144402780085 -0.090651537439
2.184210526315790 0.0143397057368 -0.089772931992
2.209022556390980 0.0142388008757 -0.088913945557
2.233834586466170 0.0141375800605 -0.088073884214
2.258646616541350 0.0140360596886 -0.087252084872
2.283458646616540 0.0139342559163 -0.086447913593
2.308270676691730 0.0138321846563 -0.085660764032
2.333082706766920 0.0137298615754 -0.084890055970
2.357894736842110 0.0136273020923 -0.084135233942
2.382706766917290 0.0135245213757 -0.083395765950
2.407518796992480 0.0134215343428 -0.082671142252
2.432330827067670 0.0133183556579 -0.081960874229
2.457142857142860 0.0132149997310 -0.081264493320
2.481954887218050 0.0131114807173 -0.080581550014
2.506766917293230 0.0130078125163 -0.079911612910
2.531578947368420 0.0129040087711 -0.079254267826
2.556390977443610 0.0128000828686 -0.078609116963
2.581203007518800 0.0126960479390 -0.077975778112
2.606015037593990 0.0125919168562 -0.077353883915
2.630827067669170 0.0124877022382 -0.076743081153
2.655639097744360 0.0123834164474 -0.076143030092
2.680451127819550 0.0122790715914 -0.075553403846
2.705263157894740 0.0121746795239 -0.074973887789
2.730075187969920 0.0120702518459 -0.074404178993
2.754887218045110 0.0119657999067 -0.073843985695
2.779699248120300 0.0118613348054 -0.073293026795
2.804511278195490 0.0117568673925 -0.072751031377
2.829323308270680 0.0116524082717 -0.072217738260
2.854135338345860 0.0115479678014 -0.071692895568
2.878947368421050 0.0114435560969 -0.071176260321
2.903759398496240 0.0113391830328 -0.070667598052
2.928571428571431 0.0112348582448 -0.070166682439
2.953383458646620 0.0111305911323 -0.069673294953
2.978195488721800 0.0110263908610 -0.069187224534
3.003007518796990 0.0109222663654 -0.068708267266
3.027819548872180 0.0108182263516 -0.068236226085
3.052631578947370 0.0107142793002 -0.067770910491
3.077443609022560 0.0106104334692 -0.067312136273
3.102255639097740 0.0105066968972 -0.066859725253
3.127067669172930 0.0104030774061 -0.066413505039
3.151879699248120 0.0102995826052 -0.065973308788
3.176691729323310 0.0101962198939 -0.065538974981
3.201503759398500 0.0100929964653 -0.065110347210
3.226315789473680 0.0099899193098 -0.064687273973
3.251127819548870 0.0098869952188 -0.064269608476
3.275939849624060 0.0097842307881 -0.063857208450
3.300751879699250 0.0096816324221 -0.063449935969
3.325563909774440 0.0095792063374 -0.063047657282
3.350375939849620 0.0094769585667 -0.062650242647
3.375187969924810 0.0093748949629 -0.062257566176
3.400000000000000 0.0092730212034 -0.061869505685
3.424812030075190 0.0091713427937 -0.061485942552
3.449624060150380 0.0090698650723 -0.061106761577
3.474436090225560 0.0089685932143 -0.060731850853
3.499248120300750 0.0088675322363 -0.060361101639
3.524060150375940 0.0087666870007 -0.059994408237
3.548872180451130 0.0086660622201 -0.059631667880
3.573684210526320 0.0085656624618 -0.059272780617
3.598496240601500 0.0084654921527 -0.058917649208
3.623308270676690 0.0083655555837 -0.058566179021
3.648120300751880 0.0082658569148 -0.058218277934
3.672932330827070 0.0081664001795 -0.057873856236
3.697744360902260 0.0080671892902 -0.057532826543
3.722556390977440 0.0079682280429 -0.057195103704
3.747368421052630 0.0078695201223 -0.056860604720
3.772180451127820 0.0077710691070 -0.056529248663
3.796992481203010 0.0076728784748 -0.056200956594
3.821804511278200 0.0075749516076 -0.055875651494
3.846616541353380 0.0074772917973 -0.055553258185
3.871428571428570 0.0073799022510 -0.055233703264
3.896240601503760 0.0072827860967 -0.054916915036
3.921052631578950 0.0071859463888 -0.054602823447
3.945864661654140 0.0070893861138 -0.054291360020
3.970676691729320 0.0069931081966 -0.053982457799
3.995488721804510 0.0068971155059 -0.053676051286
4.020300751879700 0.0068014108609 -0.053372076387
4.045112781954890 0.0067059970367 -0.053070470358
4.069924812030070 0.0066108767715 -0.052771171749
4.094736842105260 0.0065160527724 -0.052474120355
4.119548872180451 0.0064215277225 -0.052179257168
4.144360902255641 0.0063273042872 -0.051886524327
4.169172932330830 0.0062333851213 -0.051595865072
4.193984962406010 0.0061397728762 -0.051307223700
4.218796992481201 0.0060464702069 -0.051020545519
4.243609022556390 0.0059534797793 -0.050735776812
4.268421052631580 0.0058608042783 -0.050452864787
4.293233082706770 0.0057684464149 -0.050171757545
4.318045112781951 0.0056764089347 -0.049892404040
4.342857142857140 0.0055846946259 -0.049614754036
4.367669172932330 0.0054933063277 -0.049338758078
4.392481203007520 0.0054022469393 -0.049064367453
4.417293233082710 0.0053115194282 -0.048791534155
4.442105263157891 0.0052211268400 -0.048520210854
4.466917293233080 0.0051310723074 -0.048250350861
4.491729323308271 0.0050413590606 -0.047981908098
4.516541353383460 0.0049519904365 -0.047714837065
4.541353383458650 0.0048629698898 -0.047449092813
4.566165413533830 0.0047743010037 -0.047184630911
4.590977443609020 0.0046859875004 -0.046921407423
4.615789473684210 0.0045980332534 -0.046659378871
4.640601503759401 0.0045104422988 -0.046398502217
4.665413533834590 0.0044232188478 -0.046138734831
4.690225563909770 0.0043363672995 -0.045880034467
4.715037593984960 0.0042498922539 -0.045622359236
4.739849624060151 0.0041637985259 -0.045365667584
4.764661654135340 0.0040780911591 -0.045109918266
4.789473684210531 0.0039927754408 -0.044855070319
4.814285714285711 0.0039078569173 -0.044601083048
4.839097744360900 0.0038233414097 -0.044347915992
4.863909774436091 0.0037392350301 -0.044095528912
4.888721804511280 0.0036555441994 -0.043843881763
4.913533834586470 0.0035722756645 -0.043592934675
4.938345864661650 0.0034894365171 -0.043342647934
4.963157894736841 0.0034070342129 -0.043092981960
4.987969924812030 0.0033250765918 -0.042843897286
5.012781954887220 0.0032435718983 -0.042595354544
5.037593984962411 0.0031625288040 -0.042347314443
5.062406015037590 0.0030819564295 -0.042099737750
5.087218045112780 0.0030018643683 -0.041852585275
5.112030075187970 0.0029222627112 -0.041605817854
5.136842105263160 0.0028431620719 -0.041359396332
5.161654135338351 0.0027645736138 -0.041113281547
5.186466165413531 0.0026865090774 -0.040867434315
5.211278195488720 0.0026089808095 -0.040621815416
5.236090225563910 0.0025320017933 -0.040376385581
5.260902255639101 0.0024555856796 -0.040131105477
5.285714285714290 0.0023797468198 -0.039885935696
5.310526315789470 0.0023045003001 -0.039640836745
5.335338345864661 0.0022298619766 -0.039395769032
5.360150375939850 0.0021558485130 -0.039150692857
5.384962406015041 0.0020824774187 -0.038905568407
5.409774436090230 0.0020097670894 -0.038660355743
5.434586466165411 0.0019377368492 -0.038415014799
5.459398496240600 0.0018664069939 -0.038169505369
5.484210526315790 0.0017957988368 -0.037923787112
5.509022556390980 0.0017259347565 -0.037677819543
5.533834586466170 0.0016568382456 -0.037431562031
5.558646616541351 0.0015885339628 -0.037184973807
5.583458646616540 0.0015210477863 -0.036938013957
5.608270676691730 0.0014544068693 -0.036690641431
5.633082706766920 0.0013886396984 -0.036442815047
5.657894736842101 0.0013237761533 -0.036194493503
5.682706766917290 0.0012598475704 -0.035945635382
5.707518796992480 0.0011968868068 -0.035696199169
5.732330827067670 0.0011349283091 -0.035446143264
5.757142857142861 0.0010740081824 -0.035195426004
5.781954887218041 0.0010141642641 -0.034944005682
5.806766917293230 9.5543619876e-4 -0.034691840575
5.831578947368420 8.9786551660e-4 -0.034438888970
5.856390977443611 8.4149571420e-4 -0.034185109199
5.881203007518800 7.8637233827e-4 -0.033930459677
5.906015037593980 7.3254307211e-4 -0.033674898941
5.930827067669171 6.8005782487e-4 -0.033418385702
5.955639097744361 6.2896882348e-4 -0.033160878892
5.980451127819550 5.7933070749e-4 -0.032902337724
6.005263157894740 5.3120062645e-4 -0.032642721757
6.030075187969921 4.8463833999e-4 -0.032381990966
6.054887218045110 4.3970632041e-4 -0.032120105822
6.079699248120301 3.9646985771e-4 -0.031857027373
6.104511278195490 3.5499716679e-4 -0.031592717341
6.129323308270680 3.1535949683e-4 -0.031327138224
6.154135338345860 2.7763124240e-4 -0.031060253408
6.178947368421050 2.4189005625e-4 -0.030792027286
6.203759398496240 2.0821696327e-4 -0.030522425392
6.228571428571430 1.7669647534e-4 -0.030251414547
6.253383458646621 1.4741670668e-4 -0.029978963007
6.278195488721800 1.2046948907e-4 -0.029705040639
6.303007518796991 9.5950486527e-5 -0.029429619098
6.327819548872180 7.3959308595e-5 -0.029152672023
6.352631578947370 5.4599621710e-5 -0.028874175249
6.377443609022561 3.7979257655e-5 -0.028594107035
6.402255639097740 2.4210318213e-5 -0.028312448302
6.427067669172930 1.3409274967e-5 -0.028029182901
6.451879699248121 5.6970630474e-6 -0.027744297887
6.476691729323310 1.1991675183e-6 -0.027457783822
6.501503759398501 4.5700940535e-8 -0.027169635089
6.526315789473680 2.3714704966e-6 -0.026879850238
6.551127819548871 8.3160328959e-6 -0.026588432339
6.575939849624060 1.8023735104e-5 -0.026295389374
6.600751879699251 3.1643738757e-5 -0.026000734637
6.625563909774440 4.9330025916e-5 -0.025704487169
6.650375939849621 7.1241383632e-5 -0.025406672209
6.675187969924811 9.7541364558e-5 -0.025107321669
6.700000000000000 1.2839822064e-4 -0.024806474645
6.724812030075190 1.6398480669e-4 -0.024504177933
6.749624060150381 2.0447845043e-4 -0.024200486585
6.774436090225561 2.5006078537e-4 -0.023895464481
6.799248120300750 3.0091754259e-4 -0.023589184923
6.824060150375940 3.5723829749e-4 -0.023281731252
6.848872180451131 4.1921616711e-4 -0.022973197483
6.873684210526321 4.8704745357e-4 -0.022663688957
6.898496240601500 5.6093122919e-4 -0.022353323006
6.923308270676690 6.4106885835e-4 -0.022042229636
6.948120300751880 7.2766345148e-4 -0.021730552204
6.972932330827071 8.2091924625e-4 -0.021418448113
6.997744360902260 9.2104091130e-4 -0.021106089493
7.022556390977440 0.0010282327677 -0.020793663878
7.047368421052631 0.0011426979241 -0.020481374866
7.072180451127821 0.0012646373204 -0.020169442761
7.096992481203010 0.0013942486780 -0.019858105172
7.121804511278200 0.0015317253518 -0.019547617580
7.146616541353381 0.0016772550820 -0.019238253849
7.171428571428570 0.0018310186446 -0.018930306675
7.196240601503761 0.0019931884001 -0.018624087952
7.221052631578950 0.0021639267396 -0.018319929054
7.245864661654131 0.0023433844325 -0.018018181014
7.270676691729320 0.0025316988778 -0.017719214576
7.295488721804510 0.0027289922660 -0.017423420119
7.320300751879700 0.0029353696574 -0.017131207425
7.345112781954890 0.0031509169884 -0.016843005283
7.369924812030071 0.0033756990169 -0.016559260907
7.394736842105260 0.0036097572217 -0.016280439155
7.419548872180451 0.0038531076738 -0.016007021536
7.444360902255641 0.0041057388994 -0.015739504983
7.469172932330830 0.0043676097578 -0.015478400389
7.493984962406010 0.0046386473599 -0.015224230894
7.518796992481200 0.0049187450557 -0.014977529907
7.543609022556391 0.0052077605229 -0.014738838867
7.568421052631581 0.0055055139873 -0.014508704739
7.593233082706770 0.0058117866127 -0.014287677251
7.618045112781950 0.0061263190949 -0.014076305869
7.642857142857140 0.0064488104973 -0.013875136537
7.667669172932331 0.0067789173657 -0.013684708190
7.692481203007520 0.0071162531575 -0.013505549065
7.717293233082711 0.0074603880214 -0.013338172845
7.742105263157891 0.0078108489588 -0.013183074665
7.766917293233081 0.0081671203953 -0.013040727020
7.791729323308271 0.0085286451872 -0.012911575629
7.816541353383460 0.0088948260808 -0.012796035300
7.841353383458650 0.0092650276356 -0.012694485851
7.866165413533830 0.0096385786177 -0.012607268146
7.890977443609021 0.0100147748577 -0.012534680313
7.915789473684210 0.0103928825619 -0.012476974190
7.940601503759400 0.0107721420556 -0.012434352080
7.965413533834591 0.0111517719274 -0.012406963853
7.990225563909770 0.0115309735346 -0.012394904475
8.015037593984960 0.0119089358236 -0.012398211985
8.039849624060151 0.0122848404068 -0.012416865989
8.064661654135341 0.0126578668356 -0.012450786700
8.089473684210530 0.0130271979998 -0.012499834541
8.114285714285710 0.0133920255812 -0.012563810346
8.139097744360900 0.0137515554859 -0.012642456152
8.163909774436091 0.0141050131801 -0.012735456585
8.188721804511280 0.0144516488543 -0.012842440823
8.213533834586471 0.0147907423421 -0.012962985111
8.238345864661650 0.0151216077284 -0.013096615790
8.263157894736841 0.0154435975832 -0.013242812797
8.287969924812030 0.0157561067682 -0.013401013582
8.312781954887221 0.0160585757696 -0.013570617381
8.337593984962410 0.0163504935221 -0.013750989779
8.362406015037591 0.0166313996979 -0.013941467494
8.387218045112780 0.0169008864449 -0.014141363318
8.412030075187971 0.0171585995700 -0.014349971124
8.436842105263160 0.0174042391717 -0.014566570897
8.461654135338351 0.0176375597367 -0.014790433698
8.486466165413530 0.0178583697241 -0.015020826516
8.511278195488721 0.0180665306675 -0.015257016934
8.536090225563910 0.0182619558326 -0.015498277576
8.560902255639101 0.0184446084724 -0.015743890281
8.585714285714291 0.0186144997261 -0.015993149966
8.610526315789471 0.0187716862122 -0.016245368160
8.635338345864660 0.0189162673638 -0.016499876176
8.660150375939850 0.0190483825589 -0.016756027916
8.684962406015041 0.0191682080938 -0.017013202297
8.709774436090232 0.0192759540489 -0.017270805309
8.734586466165410 0.0193718610910 -0.017528271689
8.759398496240602 0.0194561972546 -0.017785066251
8.784210526315791 0.0195292547420 -0.018040684862
8.809022556390980 0.0195913467740 -0.018294655097
8.833834586466160 0.0196428045240 -0.018546536594
8.858646616541350 0.0196839741594 -0.018795921125
8.883458646616541 0.0197152140133 -0.019042432425
8.908270676691732 0.0197368919027 -0.019285725777
8.933082706766921 0.0197493826072 -0.019525487420
8.957894736842110 0.0197530655181 -0.019761433760
8.982706766917291 0.0197483224638 -0.019993310454
9.007518796992480 0.0197355357149 -0.020220891354
9.032330827067671 0.0197150861692 -0.020443977363
9.057142857142860 0.0196873517156 -0.020662395204
9.081954887218041 0.0196527057715 -0.020875996137
9.106766917293230 0.0196115159905 -0.021084654632
9.131578947368419 0.0195641431306 -0.021288267020
9.156390977443611 0.0195109400774 -0.021486750137
9.181203007518802 0.0194522510122 -0.021680039965
9.206015037593982 0.0193884107157 -0.021868090302
9.230827067669171 0.0193197439988 -0.022050871440
9.255639097744361 0.0192465652490 -0.022228368891
9.280451127819550 0.0191691780838 -0.022400582145
9.305263157894739 0.0190878751013 -0.022567523471
9.330075187969920 0.0190029377181 -0.022729216776
9.354887218045111 0.0189146360860 -0.022885696508
9.379699248120302 0.0188232290789 -0.023037006620
9.404511278195491 0.0187289643405 -0.023183199581
9.429323308270680 0.0186320783870 -0.023324335455
9.454135338345861 0.0185327967566 -0.023460481027
9.478947368421050 0.0184313341987 -0.023591708989
9.503759398496241 0.0183278948976 -0.023718097181
9.528571428571430 0.0182226727248 -0.023839727886
9.553383458646620 0.0181158515140 -0.023956687170
9.578195488721800 0.0180076053564 -0.024069064285
9.603007518796989 0.0178980989085 -0.024176951108
9.627819548872182 0.0177874877128 -0.024280441630
9.652631578947371 0.0176759185249 -0.024379631491
9.677443609022552 0.0175635296457 -0.024474617550
9.702255639097741 0.0174504512560 -0.024565497504
9.727067669172930 0.0173368057502 -0.024652369528
9.751879699248120 0.0172227080688 -0.024735331966
9.776691729323311 0.0171082660269 -0.024814483040
9.801503759398502 0.0169935806376 -0.024889920600
9.826315789473680 0.0168787464288 -0.024961741890
9.851127819548871 0.0167638517536 -0.025030043353
9.875939849624061 0.0166489790920 -0.025094920445
9.900751879699250 0.0165342053437 -0.025156467486
